
**** 09/12/19 12:07:49 ***** PSpice 16.6.0 (October 2012) ***** ID# 0 ********

 ** Profile: "SCHEMATIC1-bias"  [ C:\Users\agus_\OneDrive\Escritorio\Practica 1\1.6\practica 1-6-pspicefiles\schematic1\bias.sim ] 


 ****     CIRCUIT DESCRIPTION


******************************************************************************




** Creating circuit file "bias.cir" 
** WARNING: THIS AUTOMATICALLY GENERATED FILE MAY BE OVERWRITTEN BY SUBSEQUENT SIMULATIONS

*Libraries: 
* Profile Libraries :
* Local Libraries :
* From [PSPICE NETLIST] section of C:\SPB_Data\cdssetup\OrCAD_PSpice/16.6.0/PSpice.ini file:
.lib "nom.lib" 

*Analysis directives: 
.TRAN  0 40m 50u 50u SKIPBP 
.FOUR 50 20 i(L_Lr1) 
.OPTIONS ADVCONV
.PROBE64 V(alias(*)) I(alias(*)) W(alias(*)) D(alias(*)) NOISE(alias(*)) 
.INC "..\SCHEMATIC1.net" 



**** INCLUDING SCHEMATIC1.net ****
* source PRACTICA 1-6
V_V1         L1 N14422  
+SIN 0 537.40 100Hz 0 0 0
V_V2         L2 N14422  
+SIN 0 537.40 100Hz 0 0 0
V_V3         L3 N14422  
+SIN 0 537.40 100Hz 0 0 0
L_Lr1         L1 N14614  {Lred} IC=0A 
L_Lr2         L2 N14618  {Lred} IC=-24 
L_Lr3         L3 N14622  {Lred} IC=24A 
R_Rr1         N14614 N14775  1m TC=0,0 
R_Rr2         N14618 N14779  1m TC=0,0 
R_Rr3         N14622 N14783  1m TC=0,0 
D_D1         N14775 OUT Dbreak 
D_D2         N14779 OUT Dbreak 
D_D3         N14783 OUT Dbreak 
D_D4         0 N14775 Dbreak 
D_D5         0 N14779 Dbreak 
D_D6         0 N14783 Dbreak 
R_RESR         N14913 OUT  20m TC=0,0 
C_Cf         N14913 0 {Cap}
R_Rcarga         0 OUT  {carga} TC=0,0 
.PARAM  lred=1mh carga=20 cap=1mf

**** RESUMING bias.cir ****
.END

**** 09/12/19 12:07:49 ***** PSpice 16.6.0 (October 2012) ***** ID# 0 ********

 ** Profile: "SCHEMATIC1-bias"  [ C:\Users\agus_\OneDrive\Escritorio\Practica 1\1.6\practica 1-6-pspicefiles\schematic1\bias.sim ] 


 ****     Diode MODEL PARAMETERS


******************************************************************************




               Dbreak          
          IS   10.000000E-15 
          RS     .1          
         CJO  100.000000E-15 


**** 09/12/19 12:07:49 ***** PSpice 16.6.0 (October 2012) ***** ID# 0 ********

 ** Profile: "SCHEMATIC1-bias"  [ C:\Users\agus_\OneDrive\Escritorio\Practica 1\1.6\practica 1-6-pspicefiles\schematic1\bias.sim ] 


 ****     FOURIER ANALYSIS                 TEMPERATURE =   27.000 DEG C


******************************************************************************



FOURIER COMPONENTS OF TRANSIENT RESPONSE I(L_Lr1)



 DC COMPONENT =  -2.344328E-14

 HARMONIC   FREQUENCY    FOURIER    NORMALIZED    PHASE        NORMALIZED
    NO         (HZ)     COMPONENT    COMPONENT    (DEG)       PHASE (DEG)

     1     5.000E+01    5.348E-14    1.000E+00   -1.238E+02    0.000E+00
     2     1.000E+02    2.525E-14    4.722E-01    1.416E+02    3.891E+02
     3     1.500E+02    8.684E-14    1.624E+00   -4.462E+01    3.266E+02
     4     2.000E+02    3.489E-14    6.524E-01    1.720E+01    5.122E+02
     5     2.500E+02    6.939E-14    1.298E+00   -2.109E+01    5.977E+02
     6     3.000E+02    7.025E-14    1.314E+00    9.559E+01    8.381E+02
     7     3.500E+02    9.238E-14    1.728E+00   -1.775E+02    6.888E+02
     8     4.000E+02    7.009E-14    1.311E+00    6.127E+01    1.051E+03
     9     4.500E+02    1.522E-13    2.846E+00   -6.348E+01    1.050E+03
    10     5.000E+02    2.307E-14    4.313E-01   -1.787E+02    1.059E+03
    11     5.500E+02    9.763E-14    1.826E+00    1.014E+02    1.463E+03
    12     6.000E+02    8.380E-14    1.567E+00    1.376E+01    1.499E+03
    13     6.500E+02    6.252E-14    1.169E+00    1.339E+02    1.743E+03
    14     7.000E+02    3.002E-14    5.614E-01    1.542E+02    1.887E+03
    15     7.500E+02    6.202E-14    1.160E+00    1.354E+02    1.992E+03
    16     8.000E+02    9.485E-14    1.774E+00    1.021E+02    2.082E+03
    17     8.500E+02    1.690E-13    3.160E+00    3.097E+01    2.135E+03
    18     9.000E+02    1.078E-13    2.016E+00   -1.148E+02    2.113E+03
    19     9.500E+02    5.859E-14    1.096E+00    1.009E+02    2.452E+03
    20     1.000E+03    3.462E-14    6.473E-01    1.656E+02    2.641E+03


     TOTAL HARMONIC DISTORTION =   6.878514E+02 PERCENT


          JOB CONCLUDED

**** 09/12/19 12:07:49 ***** PSpice 16.6.0 (October 2012) ***** ID# 0 ********

 ** Profile: "SCHEMATIC1-bias"  [ C:\Users\agus_\OneDrive\Escritorio\Practica 1\1.6\practica 1-6-pspicefiles\schematic1\bias.sim ] 


 ****     JOB STATISTICS SUMMARY


******************************************************************************



  Total job time (using Solver 1)   =         .13
